
T574C 000:057 SEGGER J-Link V6.00e Log File (0001ms, 0024ms total)
T574C 000:057 DLL Compiled: Aug  4 2016 09:37:38 (0001ms, 0024ms total)
T574C 000:057 Logging started @ 2024-08-16 10:42 (0001ms, 0024ms total)
T574C 000:058 JLINK_SetWarnOutHandler(...) (0000ms, 0024ms total)
T574C 000:058 JLINK_OpenEx(...)
Firmware: J-Link V9 compiled Dec 13 2019 11:14:50
Hardware: V9.60
S/N: 69653567
Feature(s): RDI, GDB, FlashDL, FlashBP, JFlash  returns O.K. (0017ms, 0041ms total)
T574C 000:075 JLINK_SetErrorOutHandler(...) (0000ms, 0041ms total)
T574C 000:076 JLINK_ExecCommand("ProjectFile = "E:\06Keil_study_program_hal\00ÅÜÂíµÆ\Projects\00LED\JLinkSettings.ini"", ...).   returns 0x00 (0096ms, 0137ms total)
T574C 000:172 JLINK_ExecCommand("Device = STM32F103ZE", ...). Device "STM32F103ZE" selected.  returns 0x00 (0001ms, 0138ms total)
T574C 000:173 JLINK_ExecCommand("DisableConnectionTimeout", ...).   returns 0x01 (0000ms, 0138ms total)
T574C 000:173 JLINK_GetHardwareVersion()  returns 0x17700 (0000ms, 0138ms total)
T574C 000:173 JLINK_GetDLLVersion()  returns 60005 (0000ms, 0138ms total)
T574C 000:173 JLINK_GetFirmwareString(...) (0000ms, 0138ms total)
T574C 000:173 JLINK_GetDLLVersion()  returns 60005 (0000ms, 0138ms total)
T574C 000:173 JLINK_GetCompileDateTime() (0000ms, 0138ms total)
T574C 000:173 JLINK_GetFirmwareString(...) (0000ms, 0138ms total)
T574C 000:173 JLINK_GetHardwareVersion()  returns 0x17700 (0000ms, 0138ms total)
T574C 000:173 JLINK_TIF_Select(JLINKARM_TIF_SWD)  returns 0x00 (0002ms, 0140ms total)
T574C 000:175 JLINK_SetSpeed(5000) (0000ms, 0140ms total)
T574C 000:175 JLINK_GetId() >0x108 TIF>Found SWD-DP with ID 0x1BA01477 >0x0D TIF> >0x28 TIF> >0x0D TIF> >0x28 TIF> >0x0D TIF> >0x28 TIF> >0x0D TIF> >0x28 TIF> >0x0D TIF> >0x21 TIF> >0x0D TIF> >0x28 TIF> >0x0D TIF> >0x28 TIF> >0x0D TIF> >0x28 TIF> >0x0D TIF> >0x21 TIF> >0x0D TIF> >0x21 TIF> >0x0D TIF> >0x28 TIF> >0x0D TIF> >0x21 TIF> >0x0D TIF> >0x21 TIF> >0x0D TIF> >0x28 TIF> >0x0D TIF> >0x21 TIF> >0x0D TIF> >0x21 TIF> >0x0D TIF> >0x28 TIF> >0x0D TIF> >0x21 TIF> >0x0D TIF> >0x21 TIF> >0x0D TIF>
 >0x28 TIF> >0x0D TIF> >0x21 TIF> >0x0D TIF> >0x21 TIF> >0x0D TIF> >0x28 TIF> >0x0D TIF> >0x21 TIF> >0x0D TIF> >0x21 TIF> >0x0D TIF> >0x28 TIF> >0x0D TIF> >0x21 TIF> >0x0D TIF> >0x21 TIF> >0x108 TIF>Found SWD-DP with ID 0x1BA01477 >0x0D TIF> >0x28 TIF> >0x0D TIF> >0x28 TIF> >0x0D TIF> >0x28 TIF> >0x0D TIF> >0x28 TIF> >0x0D TIF> >0x21 TIF> >0x0D TIF> >0x28 TIF> >0x0D TIF> >0x28 TIF> >0x0D TIF> >0x21 TIF> >0x0D TIF> >0x21 TIF> >0x0D TIF> >0x21 TIF>AP-IDR: 0x14770011, Type: AHB-AP >0x0D TIF> >0x28 TIF>
 >0x0D TIF> >0x28 TIF> >0x0D TIF> >0x28 TIF> >0x0D TIF> >0x21 TIF> >0x0D TIF> >0x21 TIF> >0x0D TIF> >0x28 TIF> >0x0D TIF> >0x21 TIF> >0x0D TIF> >0x21 TIF>Found Cortex-M3 r1p1, Little endian. -- CPU_ReadMem(4 bytes @ 0xE000EDF0) -- CPU_ReadMem(4 bytes @ 0xE0002000)FPUnit: 6 code (BP) slots and 2 literal slots -- CPU_ReadMem(4 bytes @ 0xE000EDFC) -- CPU_ReadMem(4 bytes @ 0xE0001000) -- CPU_WriteMem(4 bytes @ 0xE0001000) -- CPU_ReadMem(4 bytes @ 0xE000ED88) -- CPU_WriteMem(4 bytes @ 0xE000ED88)
 -- CPU_ReadMem(4 bytes @ 0xE000ED88) -- CPU_WriteMem(4 bytes @ 0xE000ED88)CoreSight components:ROMTbl 0 @ E00FF000 -- CPU_ReadMem(16 bytes @ 0xE00FF000) -- CPU_ReadMem(16 bytes @ 0xE000EFF0) -- CPU_ReadMem(16 bytes @ 0xE000EFE0)ROMTbl 0 [0]: FFF0F000, CID: B105E00D, PID: 001BB000 SCS -- CPU_ReadMem(16 bytes @ 0xE0001FF0) -- CPU_ReadMem(16 bytes @ 0xE0001FE0)ROMTbl 0 [1]: FFF02000, CID: B105E00D, PID: 001BB002 DWT -- CPU_ReadMem(16 bytes @ 0xE0002FF0) -- CPU_ReadMem(16 bytes @ 0xE0002FE0)
ROMTbl 0 [2]: FFF03000, CID: B105E00D, PID: 000BB003 FPB -- CPU_ReadMem(16 bytes @ 0xE0000FF0) -- CPU_ReadMem(16 bytes @ 0xE0000FE0)ROMTbl 0 [3]: FFF01000, CID: B105E00D, PID: 001BB001 ITM -- CPU_ReadMem(16 bytes @ 0xE00FF010) -- CPU_ReadMem(16 bytes @ 0xE0040FF0) -- CPU_ReadMem(16 bytes @ 0xE0040FE0)ROMTbl 0 [4]: FFF41000, CID: B105900D, PID: 001BB923 TPIU-Lite -- CPU_ReadMem(16 bytes @ 0xE0041FF0) -- CPU_ReadMem(16 bytes @ 0xE0041FE0)ROMTbl 0 [5]: FFF42000, CID: B105900D, PID: 101BB924 ETM-M3
 >0x0D TIF> >0x21 TIF>  returns 0x1BA01477 (0055ms, 0195ms total)
T574C 000:230 JLINK_GetDLLVersion()  returns 60005 (0000ms, 0195ms total)
T574C 000:230 JLINK_CORE_GetFound()  returns 0x30000FF (0000ms, 0195ms total)
T574C 000:230 JLINK_GetDebugInfo(0x100) -- Value=0xE00FF000  returns 0x00 (0000ms, 0195ms total)
T574C 000:230 JLINK_GetDebugInfo(0x100) -- Value=0xE00FF000  returns 0x00 (0000ms, 0195ms total)
T574C 000:230 JLINK_GetDebugInfo(0x101) -- Value=0xE0041000  returns 0x00 (0000ms, 0195ms total)
T574C 000:230 JLINK_GetDebugInfo(0x102) -- Value=0x00000000  returns 0x00 (0000ms, 0195ms total)
T574C 000:230 JLINK_GetDebugInfo(0x103) -- Value=0xE0040000  returns 0x00 (0000ms, 0195ms total)
T574C 000:230 JLINK_GetDebugInfo(0x104) -- Value=0xE0000000  returns 0x00 (0000ms, 0195ms total)
T574C 000:230 JLINK_GetDebugInfo(0x105) -- Value=0xE0001000  returns 0x00 (0000ms, 0195ms total)
T574C 000:230 JLINK_GetDebugInfo(0x106) -- Value=0xE0002000  returns 0x00 (0000ms, 0195ms total)
T574C 000:230 JLINK_GetDebugInfo(0x107) -- Value=0xE000E000  returns 0x00 (0000ms, 0195ms total)
T574C 000:230 JLINK_GetDebugInfo(0x10C) -- Value=0xE000EDF0  returns 0x00 (0001ms, 0196ms total)
T574C 000:231 JLINK_ReadMemU32(0xE000ED00, 0x0001 Items, ...) -- CPU is running -- CPU_ReadMem(4 bytes @ 0xE000ED00) - Data: 31 C2 1F 41  returns 0x01 (0000ms, 0196ms total)
T574C 000:231 JLINK_SetResetType(JLINKARM_RESET_TYPE_NORMAL)  returns JLINKARM_RESET_TYPE_NORMAL (0000ms, 0196ms total)
T574C 000:231 JLINK_Reset() -- CPU is running -- CPU_WriteMem(4 bytes @ 0xE000EDF0) -- CPU is running -- CPU_WriteMem(4 bytes @ 0xE000EDFC) >0x35 TIF> -- CPU is running -- CPU_WriteMem(4 bytes @ 0xE000ED0C) -- CPU is running -- CPU_ReadMem(4 bytes @ 0xE000EDF0) -- CPU is running -- CPU_ReadMem(4 bytes @ 0xE000EDF0) -- CPU is running -- CPU_WriteMem(4 bytes @ 0xE000EDF0) -- CPU is running -- CPU_WriteMem(4 bytes @ 0xE000EDFC) -- CPU is running -- CPU_ReadMem(4 bytes @ 0xE000EDF0)
 -- CPU_WriteMem(4 bytes @ 0xE0002000) -- CPU_ReadMem(4 bytes @ 0xE000EDFC) -- CPU_ReadMem(4 bytes @ 0xE0001000) (0018ms, 0214ms total)
T574C 000:249 JLINK_ReadReg(R15 (PC))  returns 0x08000144 (0000ms, 0214ms total)
T574C 000:249 JLINK_ReadReg(XPSR)  returns 0x01000000 (0000ms, 0214ms total)
T574C 000:249 JLINK_Halt()  returns 0x00 (0000ms, 0214ms total)
T574C 000:249 JLINK_IsHalted()  returns TRUE (0000ms, 0214ms total)
T574C 000:249 JLINK_ReadMemU32(0xE000EDF0, 0x0001 Items, ...) -- CPU_ReadMem(4 bytes @ 0xE000EDF0) - Data: 03 00 03 00  returns 0x01 (0001ms, 0215ms total)
T574C 000:250 JLINK_WriteU32(0xE000EDF0, 0xA05F0003) -- CPU_WriteMem(4 bytes @ 0xE000EDF0)  returns 0x00 (0000ms, 0215ms total)
T574C 000:250 JLINK_WriteU32(0xE000EDFC, 0x01000000) -- CPU_WriteMem(4 bytes @ 0xE000EDFC)  returns 0x00 (0001ms, 0216ms total)
T574C 000:251 JLINK_GetHWStatus(...)  returns 0x00 (0000ms, 0216ms total)
T574C 000:251 JLINK_GetNumBPUnits(Type = 0xFFFFFF00)  returns 0x06 (0000ms, 0216ms total)
T574C 000:251 JLINK_GetNumBPUnits(Type = 0xF0)  returns 0x2000 (0000ms, 0216ms total)
T574C 000:251 JLINK_GetNumWPUnits()  returns 0x04 (0000ms, 0216ms total)
T574C 000:251 JLINK_GetSpeed()  returns 0xFA0 (0000ms, 0216ms total)
T574C 000:251 JLINK_ReadMemU32(0xE000E004, 0x0001 Items, ...) -- CPU_ReadMem(4 bytes @ 0xE000E004) - Data: 01 00 00 00  returns 0x01 (0001ms, 0217ms total)
T574C 000:252 JLINK_ReadMemU32(0xE000E004, 0x0001 Items, ...) -- CPU_ReadMem(4 bytes @ 0xE000E004) - Data: 01 00 00 00  returns 0x01 (0000ms, 0217ms total)
T574C 000:252 JLINK_WriteMem(0xE0001000, 0x001C Bytes, ...) - Data: 01 00 00 00 00 00 00 00 00 00 00 00 00 00 00 00 ... -- CPU_WriteMem(28 bytes @ 0xE0001000)  returns 0x1C (0002ms, 0219ms total)
T574C 000:254 JLINK_ReadMem (0xE0001000, 0x001C Bytes, ...) -- CPU_ReadMem(28 bytes @ 0xE0001000) - Data: 01 00 00 40 00 00 00 00 00 00 00 00 00 00 00 00 ...  returns 0x00 (0000ms, 0219ms total)
T574C 000:254 JLINK_ReadReg(R15 (PC))  returns 0x08000144 (0000ms, 0219ms total)
T574C 000:254 JLINK_ReadReg(XPSR)  returns 0x01000000 (0000ms, 0219ms total)
T574C 000:333 JLINK_SetResetType(JLINKARM_RESET_TYPE_NORMAL)  returns JLINKARM_RESET_TYPE_NORMAL (0000ms, 0219ms total)
T574C 000:333 JLINK_Reset() -- CPU_WriteMem(4 bytes @ 0xE000EDF0) -- CPU_WriteMem(4 bytes @ 0xE000EDFC) >0x35 TIF> -- CPU_WriteMem(4 bytes @ 0xE000ED0C) -- CPU_ReadMem(4 bytes @ 0xE000EDF0) -- CPU_ReadMem(4 bytes @ 0xE000EDF0) -- CPU_WriteMem(4 bytes @ 0xE000EDF0) -- CPU_WriteMem(4 bytes @ 0xE000EDFC) -- CPU is running -- CPU_ReadMem(4 bytes @ 0xE000EDF0) -- CPU_WriteMem(4 bytes @ 0xE0002000) -- CPU_ReadMem(4 bytes @ 0xE000EDFC) -- CPU_ReadMem(4 bytes @ 0xE0001000) (0018ms, 0237ms total)
T574C 000:351 JLINK_ReadReg(R15 (PC))  returns 0x08000144 (0000ms, 0237ms total)
T574C 000:351 JLINK_ReadReg(XPSR)  returns 0x01000000 (0000ms, 0237ms total)
T574C 000:354 JLINK_ReadMem (0x08000144, 0x003C Bytes, ...) -- CPU_ReadMem(64 bytes @ 0x08000140) -- Updating C cache (64 bytes @ 0x08000140) -- Read from C cache (60 bytes @ 0x08000144) - Data: 06 48 80 47 06 48 00 47 FE E7 FE E7 FE E7 FE E7 ...  returns 0x00 (0000ms, 0237ms total)
T574C 000:529 JLINK_ReadMem (0x40010800, 0x000C Bytes, ...) -- CPU_ReadMem(12 bytes @ 0x40010800) - Data: 44 44 44 44 44 44 84 88 00 00 00 00  returns 0x00 (0000ms, 0237ms total)
T574C 000:529 JLINK_ReadMem (0x4001080C, 0x0004 Bytes, ...) -- CPU_ReadMem(4 bytes @ 0x4001080C) - Data: 00 A0 00 00  returns 0x00 (0001ms, 0238ms total)
T574C 000:530 JLINK_ReadMem (0x40010818, 0x0004 Bytes, ...) -- CPU_ReadMem(4 bytes @ 0x40010818) - Data: 00 00 00 00  returns 0x00 (0000ms, 0238ms total)
T574C 000:569 JLINK_ReadMem (0x40010C00, 0x000C Bytes, ...) -- CPU_ReadMem(12 bytes @ 0x40010C00) - Data: 44 44 48 44 44 44 44 44 00 00 00 00  returns 0x00 (0000ms, 0239ms total)
T574C 000:569 JLINK_ReadMem (0x40010C0C, 0x0004 Bytes, ...) -- CPU_ReadMem(4 bytes @ 0x40010C0C) - Data: 10 00 00 00  returns 0x00 (0001ms, 0240ms total)
T574C 000:570 JLINK_ReadMem (0x40010C18, 0x0004 Bytes, ...) -- CPU_ReadMem(4 bytes @ 0x40010C18) - Data: 00 00 00 00  returns 0x00 (0000ms, 0240ms total)
T574C 000:606 JLINK_ReadMem (0x40011800, 0x000C Bytes, ...) -- CPU_ReadMem(12 bytes @ 0x40011800) - Data: 44 44 44 44 44 44 44 44 00 00 00 00  returns 0x00 (0000ms, 0240ms total)
T574C 000:606 JLINK_ReadMem (0x4001180C, 0x0004 Bytes, ...) -- CPU_ReadMem(4 bytes @ 0x4001180C) - Data: 00 00 00 00  returns 0x00 (0001ms, 0241ms total)
T574C 000:607 JLINK_ReadMem (0x40011818, 0x0004 Bytes, ...) -- CPU_ReadMem(4 bytes @ 0x40011818) - Data: 00 00 00 00  returns 0x00 (0000ms, 0241ms total)
T499C 001:904 JLINK_SetBPEx(Addr = 0x08001404, Type = 0xFFFFFFF2)  returns 0x00000001 (0000ms, 0241ms total)
T499C 001:904 JLINK_Go() -- CPU_WriteMem(4 bytes @ 0xE0002000) -- CPU_ReadMem(4 bytes @ 0xE0001000) -- CPU_WriteMem(4 bytes @ 0xE0002008) -- CPU_WriteMem(4 bytes @ 0xE000200C) -- CPU_WriteMem(4 bytes @ 0xE0002010) -- CPU_WriteMem(4 bytes @ 0xE0002014) -- CPU_WriteMem(4 bytes @ 0xE0002018) -- CPU_WriteMem(4 bytes @ 0xE000201C) -- CPU_WriteMem(4 bytes @ 0xE0001004) (0006ms, 0247ms total)
T499C 002:010 JLINK_IsHalted()  returns TRUE (0002ms, 0249ms total)
T499C 002:012 JLINK_Halt()  returns 0x00 (0000ms, 0247ms total)
T499C 002:012 JLINK_IsHalted()  returns TRUE (0000ms, 0247ms total)
T499C 002:012 JLINK_IsHalted()  returns TRUE (0000ms, 0247ms total)
T499C 002:012 JLINK_IsHalted()  returns TRUE (0000ms, 0247ms total)
T499C 002:012 JLINK_ReadReg(R15 (PC))  returns 0x08001404 (0000ms, 0247ms total)
T499C 002:012 JLINK_ReadReg(XPSR)  returns 0x61000000 (0000ms, 0247ms total)
T499C 002:012 JLINK_ClrBPEx(BPHandle = 0x00000001)  returns 0x00 (0000ms, 0247ms total)
T499C 002:013 JLINK_ReadMemU32(0xE000ED30, 0x0001 Items, ...) -- CPU_ReadMem(4 bytes @ 0xE000ED30) - Data: 02 00 00 00  returns 0x01 (0000ms, 0247ms total)
T499C 002:013 JLINK_ReadMemU32(0xE0001028, 0x0001 Items, ...) -- CPU_ReadMem(4 bytes @ 0xE0001028) - Data: 00 00 00 00  returns 0x01 (0001ms, 0248ms total)
T499C 002:014 JLINK_ReadMemU32(0xE0001038, 0x0001 Items, ...) -- CPU_ReadMem(4 bytes @ 0xE0001038) - Data: 00 02 00 00  returns 0x01 (0000ms, 0248ms total)
T499C 002:014 JLINK_ReadMemU32(0xE0001048, 0x0001 Items, ...) -- CPU_ReadMem(4 bytes @ 0xE0001048) - Data: 00 00 00 00  returns 0x01 (0001ms, 0249ms total)
T499C 002:015 JLINK_ReadMemU32(0xE0001058, 0x0001 Items, ...) -- CPU_ReadMem(4 bytes @ 0xE0001058) - Data: 00 00 00 00  returns 0x01 (0000ms, 0249ms total)
T499C 002:015 JLINK_ReadReg(R0)  returns 0x08001405 (0000ms, 0249ms total)
T499C 002:015 JLINK_ReadReg(R1)  returns 0x20000528 (0000ms, 0249ms total)
T499C 002:015 JLINK_ReadReg(R2)  returns 0x00000000 (0000ms, 0249ms total)
T499C 002:015 JLINK_ReadReg(R3)  returns 0x080012FD (0000ms, 0249ms total)
T499C 002:015 JLINK_ReadReg(R4)  returns 0x08001510 (0000ms, 0249ms total)
T499C 002:015 JLINK_ReadReg(R5)  returns 0x08001510 (0000ms, 0249ms total)
T499C 002:015 JLINK_ReadReg(R6)  returns 0x00000000 (0000ms, 0249ms total)
T499C 002:015 JLINK_ReadReg(R7)  returns 0x00000000 (0000ms, 0249ms total)
T499C 002:015 JLINK_ReadReg(R8)  returns 0x00000000 (0000ms, 0249ms total)
T499C 002:015 JLINK_ReadReg(R9)  returns 0x20000160 (0000ms, 0249ms total)
T499C 002:015 JLINK_ReadReg(R10)  returns 0x00000000 (0001ms, 0250ms total)
T499C 002:016 JLINK_ReadReg(R11)  returns 0x00000000 (0000ms, 0250ms total)
T499C 002:016 JLINK_ReadReg(R12)  returns 0x00000000 (0000ms, 0250ms total)
T499C 002:016 JLINK_ReadReg(R13 (SP))  returns 0x20000528 (0000ms, 0250ms total)
T499C 002:016 JLINK_ReadReg(R14)  returns 0x080001A9 (0000ms, 0250ms total)
T499C 002:016 JLINK_ReadReg(R15 (PC))  returns 0x08001404 (0000ms, 0250ms total)
T499C 002:016 JLINK_ReadReg(XPSR)  returns 0x61000000 (0000ms, 0250ms total)
T499C 002:016 JLINK_ReadReg(MSP)  returns 0x20000528 (0000ms, 0250ms total)
T499C 002:016 JLINK_ReadReg(PSP)  returns 0x20001000 (0000ms, 0250ms total)
T499C 002:016 JLINK_ReadReg(CFBP)  returns 0x00000000 (0000ms, 0250ms total)
T574C 002:025 JLINK_ReadMemU32(0xE0001004, 0x0001 Items, ...) -- CPU_ReadMem(4 bytes @ 0xE0001004) - Data: 13 08 00 00  returns 0x01 (0000ms, 0250ms total)
T574C 002:026 JLINK_ReadMem (0x40010800, 0x000C Bytes, ...) -- CPU_ReadMem(12 bytes @ 0x40010800) - Data: 44 44 44 44 44 44 84 88 00 00 00 00  returns 0x00 (0000ms, 0250ms total)
T574C 002:026 JLINK_ReadMem (0x4001080C, 0x0004 Bytes, ...) -- CPU_ReadMem(4 bytes @ 0x4001080C) - Data: 00 A0 00 00  returns 0x00 (0001ms, 0251ms total)
T574C 002:027 JLINK_ReadMem (0x40010818, 0x0004 Bytes, ...) -- CPU_ReadMem(4 bytes @ 0x40010818) - Data: 00 00 00 00  returns 0x00 (0000ms, 0251ms total)
T574C 002:028 JLINK_ReadMem (0x40010C00, 0x000C Bytes, ...) -- CPU_ReadMem(12 bytes @ 0x40010C00) - Data: 44 44 48 44 44 44 44 44 00 00 00 00  returns 0x00 (0000ms, 0251ms total)
T574C 002:028 JLINK_ReadMem (0x40010C0C, 0x0004 Bytes, ...) -- CPU_ReadMem(4 bytes @ 0x40010C0C) - Data: 10 00 00 00  returns 0x00 (0001ms, 0252ms total)
T574C 002:029 JLINK_ReadMem (0x40010C18, 0x0004 Bytes, ...) -- CPU_ReadMem(4 bytes @ 0x40010C18) - Data: 00 00 00 00  returns 0x00 (0000ms, 0252ms total)
T574C 002:029 JLINK_ReadMem (0x40011800, 0x000C Bytes, ...) -- CPU_ReadMem(12 bytes @ 0x40011800) - Data: 44 44 44 44 44 44 44 44 00 00 00 00  returns 0x00 (0001ms, 0253ms total)
T574C 002:030 JLINK_ReadMem (0x4001180C, 0x0004 Bytes, ...) -- CPU_ReadMem(4 bytes @ 0x4001180C) - Data: 00 00 00 00  returns 0x00 (0001ms, 0254ms total)
T574C 002:031 JLINK_ReadMem (0x40011818, 0x0004 Bytes, ...) -- CPU_ReadMem(4 bytes @ 0x40011818) - Data: 00 00 00 00  returns 0x00 (0000ms, 0254ms total)
T574C 002:034 JLINK_ReadMem (0x08001304, 0x003C Bytes, ...) -- CPU_ReadMem(64 bytes @ 0x08001300) -- Updating C cache (64 bytes @ 0x08001300) -- Read from C cache (60 bytes @ 0x08001304) - Data: 00 2A FB D1 70 47 00 00 01 49 08 60 70 47 00 00 ...  returns 0x00 (0001ms, 0255ms total)
T574C 002:035 JLINK_ReadMem (0x08001340, 0x003C Bytes, ...) -- CPU_ReadMem(64 bytes @ 0x08001340) -- Updating C cache (64 bytes @ 0x08001340) -- Read from C cache (60 bytes @ 0x08001340) - Data: 4F F0 E0 26 B1 69 10 E0 4F F0 E0 26 B0 69 88 42 ...  returns 0x00 (0001ms, 0256ms total)
T574C 002:037 JLINK_ReadMem (0x0800137C, 0x003C Bytes, ...) -- CPU_ReadMem(64 bytes @ 0x08001380) -- Updating C cache (64 bytes @ 0x08001380) -- Read from C cache (60 bytes @ 0x0800137C) - Data: 1E 48 80 69 40 F0 08 00 1C 49 88 61 08 46 80 69 ...  returns 0x00 (0001ms, 0257ms total)
T574C 002:038 JLINK_ReadMem (0x080013B8, 0x003C Bytes, ...) -- CPU_ReadMem(64 bytes @ 0x080013C0) -- Updating C cache (64 bytes @ 0x080013C0) -- Read from C cache (60 bytes @ 0x080013B8) - Data: 01 90 01 20 02 90 03 90 03 20 04 90 01 A9 0D 48 ...  returns 0x00 (0000ms, 0257ms total)
T574C 002:038 JLINK_ReadMem (0x080013F4, 0x000C Bytes, ...) -- Read from C cache (12 bytes @ 0x080013F4) - Data: 05 B0 00 BD 00 10 02 40 00 0C 01 40  returns 0x00 (0000ms, 0257ms total)
T574C 002:038 JLINK_ReadMem (0x08001400, 0x0030 Bytes, ...) -- CPU_ReadMem(64 bytes @ 0x08001400) -- Updating C cache (64 bytes @ 0x08001400) -- Read from C cache (48 bytes @ 0x08001400) - Data: 00 18 01 40 FF F7 64 F9 4F F4 E0 10 00 F0 30 F8 ...  returns 0x00 (0001ms, 0258ms total)
T499C 016:228 JLINK_SetBPEx(Addr = 0x0800141C, Type = 0xFFFFFFF2)  returns 0x00000002 (0000ms, 0258ms total)
T499C 016:228 JLINK_Go() -- CPU_WriteMem(4 bytes @ 0xE0002000) -- CPU_ReadMem(4 bytes @ 0xE0001000) -- CPU_WriteMem(4 bytes @ 0xE0002008) (0003ms, 0261ms total)
T499C 016:331 JLINK_IsHalted()  returns TRUE (0002ms, 0263ms total)
T499C 016:333 JLINK_Halt()  returns 0x00 (0000ms, 0261ms total)
T499C 016:333 JLINK_IsHalted()  returns TRUE (0000ms, 0261ms total)
T499C 016:333 JLINK_IsHalted()  returns TRUE (0000ms, 0261ms total)
T499C 016:333 JLINK_IsHalted()  returns TRUE (0000ms, 0261ms total)
T499C 016:334 JLINK_ReadReg(R15 (PC))  returns 0x0800141C (0000ms, 0261ms total)
T499C 016:334 JLINK_ReadReg(XPSR)  returns 0x21000000 (0000ms, 0261ms total)
T499C 016:334 JLINK_ClrBPEx(BPHandle = 0x00000002)  returns 0x00 (0000ms, 0261ms total)
T499C 016:334 JLINK_ReadMemU32(0xE000ED30, 0x0001 Items, ...) -- CPU_ReadMem(4 bytes @ 0xE000ED30) - Data: 02 00 00 00  returns 0x01 (0000ms, 0261ms total)
T499C 016:334 JLINK_ReadMemU32(0xE0001028, 0x0001 Items, ...) -- CPU_ReadMem(4 bytes @ 0xE0001028) - Data: 00 00 00 00  returns 0x01 (0001ms, 0262ms total)
T499C 016:335 JLINK_ReadMemU32(0xE0001038, 0x0001 Items, ...) -- CPU_ReadMem(4 bytes @ 0xE0001038) - Data: 00 02 00 00  returns 0x01 (0001ms, 0263ms total)
T499C 016:336 JLINK_ReadMemU32(0xE0001048, 0x0001 Items, ...) -- CPU_ReadMem(4 bytes @ 0xE0001048) - Data: 00 00 00 00  returns 0x01 (0000ms, 0263ms total)
T499C 016:336 JLINK_ReadMemU32(0xE0001058, 0x0001 Items, ...) -- CPU_ReadMem(4 bytes @ 0xE0001058) - Data: 00 00 00 00  returns 0x01 (0001ms, 0264ms total)
T499C 016:337 JLINK_ReadReg(R0)  returns 0x40011800 (0000ms, 0264ms total)
T499C 016:337 JLINK_ReadReg(R1)  returns 0x00000020 (0000ms, 0264ms total)
T499C 016:337 JLINK_ReadReg(R2)  returns 0x00000001 (0000ms, 0264ms total)
T499C 016:337 JLINK_ReadReg(R3)  returns 0x0000000B (0000ms, 0264ms total)
T499C 016:337 JLINK_ReadReg(R4)  returns 0x08001510 (0000ms, 0264ms total)
T499C 016:337 JLINK_ReadReg(R5)  returns 0x08001510 (0000ms, 0264ms total)
T499C 016:337 JLINK_ReadReg(R6)  returns 0x00000000 (0000ms, 0264ms total)
T499C 016:337 JLINK_ReadReg(R7)  returns 0x00000000 (0001ms, 0265ms total)
T499C 016:338 JLINK_ReadReg(R8)  returns 0x00000000 (0000ms, 0265ms total)
T499C 016:338 JLINK_ReadReg(R9)  returns 0x20000160 (0000ms, 0265ms total)
T499C 016:338 JLINK_ReadReg(R10)  returns 0x00000000 (0000ms, 0265ms total)
T499C 016:338 JLINK_ReadReg(R11)  returns 0x00000000 (0000ms, 0265ms total)
T499C 016:338 JLINK_ReadReg(R12)  returns 0x00000003 (0000ms, 0265ms total)
T499C 016:338 JLINK_ReadReg(R13 (SP))  returns 0x20000528 (0000ms, 0265ms total)
T499C 016:338 JLINK_ReadReg(R14)  returns 0x080013F3 (0000ms, 0265ms total)
T499C 016:338 JLINK_ReadReg(R15 (PC))  returns 0x0800141C (0000ms, 0265ms total)
T499C 016:338 JLINK_ReadReg(XPSR)  returns 0x21000000 (0000ms, 0265ms total)
T499C 016:338 JLINK_ReadReg(MSP)  returns 0x20000528 (0001ms, 0266ms total)
T499C 016:339 JLINK_ReadReg(PSP)  returns 0x20001000 (0000ms, 0266ms total)
T499C 016:339 JLINK_ReadReg(CFBP)  returns 0x00000000 (0000ms, 0266ms total)
T574C 016:341 JLINK_ReadMemU32(0xE0001004, 0x0001 Items, ...) -- CPU_ReadMem(4 bytes @ 0xE0001004) - Data: AD 21 00 00  returns 0x01 (0001ms, 0267ms total)
T574C 016:343 JLINK_ReadMem (0x40010800, 0x000C Bytes, ...) -- CPU_ReadMem(12 bytes @ 0x40010800) - Data: 44 44 44 44 44 44 84 88 00 00 00 00  returns 0x00 (0000ms, 0267ms total)
T574C 016:343 JLINK_ReadMem (0x4001080C, 0x0004 Bytes, ...) -- CPU_ReadMem(4 bytes @ 0x4001080C) - Data: 00 A0 00 00  returns 0x00 (0001ms, 0268ms total)
T574C 016:344 JLINK_ReadMem (0x40010818, 0x0004 Bytes, ...) -- CPU_ReadMem(4 bytes @ 0x40010818) - Data: 00 00 00 00  returns 0x00 (0001ms, 0269ms total)
T574C 016:345 JLINK_ReadMem (0x40010C00, 0x000C Bytes, ...) -- CPU_ReadMem(12 bytes @ 0x40010C00) - Data: 44 44 38 44 44 44 44 44 F0 FE 00 00  returns 0x00 (0001ms, 0270ms total)
T574C 016:346 JLINK_ReadMem (0x40010C0C, 0x0004 Bytes, ...) -- CPU_ReadMem(4 bytes @ 0x40010C0C) - Data: 30 00 00 00  returns 0x00 (0000ms, 0270ms total)
T574C 016:346 JLINK_ReadMem (0x40010C18, 0x0004 Bytes, ...) -- CPU_ReadMem(4 bytes @ 0x40010C18) - Data: 00 00 00 00  returns 0x00 (0001ms, 0271ms total)
T574C 016:348 JLINK_ReadMem (0x40011800, 0x000C Bytes, ...) -- CPU_ReadMem(12 bytes @ 0x40011800) - Data: 44 44 34 44 44 44 44 44 E0 FF 00 00  returns 0x00 (0000ms, 0271ms total)
T574C 016:348 JLINK_ReadMem (0x4001180C, 0x0004 Bytes, ...) -- CPU_ReadMem(4 bytes @ 0x4001180C) - Data: 20 00 00 00  returns 0x00 (0001ms, 0272ms total)
T574C 016:349 JLINK_ReadMem (0x40011818, 0x0004 Bytes, ...) -- CPU_ReadMem(4 bytes @ 0x40011818) - Data: 00 00 00 00  returns 0x00 (0001ms, 0273ms total)
T574C 016:354 JLINK_ReadMem (0x0800141A, 0x0002 Bytes, ...) -- CPU_ReadMem(64 bytes @ 0x08001400) -- Updating C cache (64 bytes @ 0x08001400) -- Read from C cache (2 bytes @ 0x0800141A) - Data: 23 E0  returns 0x00 (0001ms, 0274ms total)
T574C 016:355 JLINK_ReadMem (0x0800141C, 0x003C Bytes, ...) -- CPU_ReadMem(64 bytes @ 0x08001440) -- Updating C cache (64 bytes @ 0x08001440) -- Read from C cache (60 bytes @ 0x0800141C) - Data: 00 BF 00 22 20 21 11 48 FF F7 3C F9 00 BF 00 BF ...  returns 0x00 (0001ms, 0275ms total)
T499C 024:657 JLINK_Step() -- Read from C cache (2 bytes @ 0x0800141C) -- CPU_ReadMem(4 bytes @ 0xE000ED18) -- CPU_WriteMem(4 bytes @ 0xE000ED18) -- CPU_ReadMem(4 bytes @ 0xE000ED18) -- CPU_WriteMem(4 bytes @ 0xE000ED18) -- Simulated  returns 0x00 (0002ms, 0277ms total)
T499C 024:659 JLINK_ReadReg(R15 (PC))  returns 0x0800141E (0000ms, 0277ms total)
T499C 024:659 JLINK_ReadReg(XPSR)  returns 0x21000000 (0000ms, 0277ms total)
T499C 024:659 JLINK_ReadReg(R0)  returns 0x40011800 (0000ms, 0277ms total)
T499C 024:659 JLINK_ReadReg(R1)  returns 0x00000020 (0000ms, 0277ms total)
T499C 024:659 JLINK_ReadReg(R2)  returns 0x00000001 (0000ms, 0277ms total)
T499C 024:659 JLINK_ReadReg(R3)  returns 0x0000000B (0001ms, 0278ms total)
T499C 024:660 JLINK_ReadReg(R4)  returns 0x08001510 (0000ms, 0278ms total)
T499C 024:660 JLINK_ReadReg(R5)  returns 0x08001510 (0000ms, 0278ms total)
T499C 024:660 JLINK_ReadReg(R6)  returns 0x00000000 (0000ms, 0278ms total)
T499C 024:660 JLINK_ReadReg(R7)  returns 0x00000000 (0000ms, 0278ms total)
T499C 024:660 JLINK_ReadReg(R8)  returns 0x00000000 (0000ms, 0278ms total)
T499C 024:660 JLINK_ReadReg(R9)  returns 0x20000160 (0000ms, 0278ms total)
T499C 024:660 JLINK_ReadReg(R10)  returns 0x00000000 (0000ms, 0278ms total)
T499C 024:660 JLINK_ReadReg(R11)  returns 0x00000000 (0000ms, 0278ms total)
T499C 024:660 JLINK_ReadReg(R12)  returns 0x00000003 (0000ms, 0278ms total)
T499C 024:660 JLINK_ReadReg(R13 (SP))  returns 0x20000528 (0000ms, 0278ms total)
T499C 024:660 JLINK_ReadReg(R14)  returns 0x080013F3 (0000ms, 0278ms total)
T499C 024:660 JLINK_ReadReg(R15 (PC))  returns 0x0800141E (0000ms, 0278ms total)
T499C 024:660 JLINK_ReadReg(XPSR)  returns 0x21000000 (0000ms, 0278ms total)
T499C 024:660 JLINK_ReadReg(MSP)  returns 0x20000528 (0000ms, 0278ms total)
T499C 024:660 JLINK_ReadReg(PSP)  returns 0x20001000 (0000ms, 0278ms total)
T499C 024:660 JLINK_ReadReg(CFBP)  returns 0x00000000 (0000ms, 0278ms total)
T574C 024:660 JLINK_ReadMemU32(0xE0001004, 0x0001 Items, ...) - Data: AD 21 00 00  returns 0x01 (0000ms, 0278ms total)
T574C 024:661 JLINK_ReadMem (0x40010800, 0x000C Bytes, ...) -- CPU_ReadMem(12 bytes @ 0x40010800) - Data: 44 44 44 44 44 44 84 88 00 00 00 00  returns 0x00 (0000ms, 0278ms total)
T574C 024:661 JLINK_ReadMem (0x4001080C, 0x0004 Bytes, ...) -- CPU_ReadMem(4 bytes @ 0x4001080C) - Data: 00 A0 00 00  returns 0x00 (0001ms, 0279ms total)
T574C 024:662 JLINK_ReadMem (0x40010818, 0x0004 Bytes, ...) -- CPU_ReadMem(4 bytes @ 0x40010818) - Data: 00 00 00 00  returns 0x00 (0001ms, 0280ms total)
T574C 024:663 JLINK_ReadMem (0x40010C00, 0x000C Bytes, ...) -- CPU_ReadMem(12 bytes @ 0x40010C00) - Data: 44 44 38 44 44 44 44 44 F0 FE 00 00  returns 0x00 (0001ms, 0281ms total)
T574C 024:664 JLINK_ReadMem (0x40010C0C, 0x0004 Bytes, ...) -- CPU_ReadMem(4 bytes @ 0x40010C0C) - Data: 30 00 00 00  returns 0x00 (0000ms, 0281ms total)
T574C 024:664 JLINK_ReadMem (0x40010C18, 0x0004 Bytes, ...) -- CPU_ReadMem(4 bytes @ 0x40010C18) - Data: 00 00 00 00  returns 0x00 (0001ms, 0282ms total)
T574C 024:665 JLINK_ReadMem (0x40011800, 0x000C Bytes, ...) -- CPU_ReadMem(12 bytes @ 0x40011800) - Data: 44 44 34 44 44 44 44 44 E0 FF 00 00  returns 0x00 (0000ms, 0282ms total)
T574C 024:665 JLINK_ReadMem (0x4001180C, 0x0004 Bytes, ...) -- CPU_ReadMem(4 bytes @ 0x4001180C) - Data: 20 00 00 00  returns 0x00 (0000ms, 0282ms total)
T574C 024:665 JLINK_ReadMem (0x40011818, 0x0004 Bytes, ...) -- CPU_ReadMem(4 bytes @ 0x40011818) - Data: 00 00 00 00  returns 0x00 (0001ms, 0283ms total)
T574C 024:673 JLINK_ReadMem (0x0800141A, 0x0002 Bytes, ...) -- Read from C cache (2 bytes @ 0x0800141A) - Data: 23 E0  returns 0x00 (0000ms, 0283ms total)
T574C 024:673 JLINK_ReadMem (0x0800141C, 0x003C Bytes, ...) -- Read from C cache (60 bytes @ 0x0800141C) - Data: 00 BF 00 22 20 21 11 48 FF F7 3C F9 00 BF 00 BF ...  returns 0x00 (0000ms, 0283ms total)
T499C 027:713 JLINK_Step() -- Read from C cache (2 bytes @ 0x0800141E) -- Simulated  returns 0x00 (0000ms, 0283ms total)
T499C 027:713 JLINK_ReadReg(R15 (PC))  returns 0x08001420 (0001ms, 0284ms total)
T499C 027:714 JLINK_ReadReg(XPSR)  returns 0x61000000 (0000ms, 0284ms total)
T499C 027:714 JLINK_Step() -- Read from C cache (2 bytes @ 0x08001420) -- Simulated  returns 0x00 (0000ms, 0284ms total)
T499C 027:714 JLINK_ReadReg(R15 (PC))  returns 0x08001422 (0000ms, 0284ms total)
T499C 027:714 JLINK_ReadReg(XPSR)  returns 0x21000000 (0000ms, 0284ms total)
T499C 027:714 JLINK_Step() -- Read from C cache (2 bytes @ 0x08001422) -- Read from C cache (4 bytes @ 0x08001468) -- Simulated  returns 0x00 (0000ms, 0284ms total)
T499C 027:714 JLINK_ReadReg(R15 (PC))  returns 0x08001424 (0000ms, 0284ms total)
T499C 027:714 JLINK_ReadReg(XPSR)  returns 0x21000000 (0000ms, 0284ms total)
T499C 027:716 JLINK_Step() -- Read from C cache (2 bytes @ 0x08001424) -- Read from C cache (2 bytes @ 0x08001426) -- Simulated  returns 0x00 (0000ms, 0284ms total)
T499C 027:716 JLINK_ReadReg(R15 (PC))  returns 0x080006A0 (0000ms, 0284ms total)
T499C 027:716 JLINK_ReadReg(XPSR)  returns 0x21000000 (0000ms, 0284ms total)
T499C 027:716 JLINK_ReadReg(R0)  returns 0x40010C00 (0000ms, 0284ms total)
T499C 027:716 JLINK_ReadReg(R1)  returns 0x00000020 (0000ms, 0284ms total)
T499C 027:716 JLINK_ReadReg(R2)  returns 0x00000000 (0000ms, 0284ms total)
T499C 027:716 JLINK_ReadReg(R3)  returns 0x0000000B (0000ms, 0284ms total)
T499C 027:716 JLINK_ReadReg(R4)  returns 0x08001510 (0000ms, 0284ms total)
T499C 027:716 JLINK_ReadReg(R5)  returns 0x08001510 (0000ms, 0284ms total)
T499C 027:716 JLINK_ReadReg(R6)  returns 0x00000000 (0000ms, 0284ms total)
T499C 027:716 JLINK_ReadReg(R7)  returns 0x00000000 (0000ms, 0284ms total)
T499C 027:716 JLINK_ReadReg(R8)  returns 0x00000000 (0000ms, 0284ms total)
T499C 027:716 JLINK_ReadReg(R9)  returns 0x20000160 (0000ms, 0284ms total)
T499C 027:716 JLINK_ReadReg(R10)  returns 0x00000000 (0000ms, 0284ms total)
T499C 027:716 JLINK_ReadReg(R11)  returns 0x00000000 (0000ms, 0284ms total)
T499C 027:716 JLINK_ReadReg(R12)  returns 0x00000003 (0000ms, 0284ms total)
T499C 027:716 JLINK_ReadReg(R13 (SP))  returns 0x20000528 (0000ms, 0284ms total)
T499C 027:716 JLINK_ReadReg(R14)  returns 0x08001429 (0000ms, 0284ms total)
T499C 027:716 JLINK_ReadReg(R15 (PC))  returns 0x080006A0 (0000ms, 0284ms total)
T499C 027:716 JLINK_ReadReg(XPSR)  returns 0x21000000 (0000ms, 0284ms total)
T499C 027:716 JLINK_ReadReg(MSP)  returns 0x20000528 (0000ms, 0284ms total)
T499C 027:716 JLINK_ReadReg(PSP)  returns 0x20001000 (0000ms, 0284ms total)
T499C 027:716 JLINK_ReadReg(CFBP)  returns 0x00000000 (0000ms, 0284ms total)
T574C 027:720 JLINK_ReadMemU32(0xE0001004, 0x0001 Items, ...) - Data: AD 21 00 00  returns 0x01 (0000ms, 0284ms total)
T574C 027:721 JLINK_ReadMem (0x40010800, 0x000C Bytes, ...) -- CPU_ReadMem(12 bytes @ 0x40010800) - Data: 44 44 44 44 44 44 84 88 00 00 00 00  returns 0x00 (0000ms, 0284ms total)
T574C 027:721 JLINK_ReadMem (0x4001080C, 0x0004 Bytes, ...) -- CPU_ReadMem(4 bytes @ 0x4001080C) - Data: 00 A0 00 00  returns 0x00 (0001ms, 0285ms total)
T574C 027:722 JLINK_ReadMem (0x40010818, 0x0004 Bytes, ...) -- CPU_ReadMem(4 bytes @ 0x40010818) - Data: 00 00 00 00  returns 0x00 (0000ms, 0285ms total)
T574C 027:722 JLINK_ReadMem (0x40010C00, 0x000C Bytes, ...) -- CPU_ReadMem(12 bytes @ 0x40010C00) - Data: 44 44 38 44 44 44 44 44 F0 FE 00 00  returns 0x00 (0001ms, 0286ms total)
T574C 027:723 JLINK_ReadMem (0x40010C0C, 0x0004 Bytes, ...) -- CPU_ReadMem(4 bytes @ 0x40010C0C) - Data: 30 00 00 00  returns 0x00 (0000ms, 0286ms total)
T574C 027:723 JLINK_ReadMem (0x40010C18, 0x0004 Bytes, ...) -- CPU_ReadMem(4 bytes @ 0x40010C18) - Data: 00 00 00 00  returns 0x00 (0001ms, 0287ms total)
T574C 027:724 JLINK_ReadMem (0x40011800, 0x000C Bytes, ...) -- CPU_ReadMem(12 bytes @ 0x40011800) - Data: 44 44 34 44 44 44 44 44 E0 FF 00 00  returns 0x00 (0001ms, 0288ms total)
T574C 027:725 JLINK_ReadMem (0x4001180C, 0x0004 Bytes, ...) -- CPU_ReadMem(4 bytes @ 0x4001180C) - Data: 20 00 00 00  returns 0x00 (0000ms, 0288ms total)
T574C 027:725 JLINK_ReadMem (0x40011818, 0x0004 Bytes, ...) -- CPU_ReadMem(4 bytes @ 0x40011818) - Data: 00 00 00 00  returns 0x00 (0001ms, 0289ms total)
T574C 027:730 JLINK_ReadMem (0x080005A0, 0x003C Bytes, ...) -- CPU_ReadMem(128 bytes @ 0x08000580) -- Updating C cache (128 bytes @ 0x08000580) -- Read from C cache (60 bytes @ 0x080005A0) - Data: D8 F8 00 80 48 EA 00 08 DF F8 F0 90 09 F1 04 09 ...  returns 0x00 (0002ms, 0291ms total)
T574C 027:732 JLINK_ReadMem (0x080005DC, 0x003C Bytes, ...) -- CPU_ReadMem(64 bytes @ 0x08000600) -- Updating C cache (64 bytes @ 0x08000600) -- Read from C cache (60 bytes @ 0x080005DC) - Data: 80 1F 0E D1 DF F8 B8 80 08 F1 08 08 D8 F8 00 80 ...  returns 0x00 (0000ms, 0291ms total)
T574C 027:733 JLINK_ReadMem (0x08000618, 0x003C Bytes, ...) -- CPU_ReadMem(64 bytes @ 0x08000640) -- Updating C cache (64 bytes @ 0x08000640) -- Read from C cache (60 bytes @ 0x08000618) - Data: 00 80 D1 F8 04 80 08 F4 00 18 B8 F5 00 1F 0E D1 ...  returns 0x00 (0001ms, 0292ms total)
T574C 027:734 JLINK_ReadMem (0x08000654, 0x003C Bytes, ...) -- CPU_ReadMem(64 bytes @ 0x08000680) -- Updating C cache (64 bytes @ 0x08000680) -- Read from C cache (60 bytes @ 0x08000654) - Data: 00 08 DF F8 44 90 09 F1 0C 09 C9 F8 00 80 5B 1C ...  returns 0x00 (0001ms, 0293ms total)
T574C 027:735 JLINK_ReadMem (0x0800069E, 0x0002 Bytes, ...) -- Read from C cache (2 bytes @ 0x0800069E) - Data: 01 40  returns 0x00 (0000ms, 0293ms total)
T574C 027:735 JLINK_ReadMem (0x080006A0, 0x003C Bytes, ...) -- CPU_ReadMem(64 bytes @ 0x080006C0) -- Updating C cache (64 bytes @ 0x080006C0) -- Read from C cache (60 bytes @ 0x080006A0) - Data: 0A B1 01 61 01 E0 0B 04 03 61 70 47 01 48 00 68 ...  returns 0x00 (0001ms, 0294ms total)
T499C 028:744 JLINK_Step() -- Read from C cache (2 bytes @ 0x080006A0) -- Simulated  returns 0x00 (0001ms, 0295ms total)
T499C 028:745 JLINK_ReadReg(R15 (PC))  returns 0x080006A6 (0000ms, 0295ms total)
T499C 028:745 JLINK_ReadReg(XPSR)  returns 0x21000000 (0000ms, 0295ms total)
T499C 028:745 JLINK_ReadReg(R0)  returns 0x40010C00 (0000ms, 0295ms total)
T499C 028:745 JLINK_ReadReg(R1)  returns 0x00000020 (0000ms, 0295ms total)
T499C 028:745 JLINK_ReadReg(R2)  returns 0x00000000 (0000ms, 0295ms total)
T499C 028:745 JLINK_ReadReg(R3)  returns 0x0000000B (0001ms, 0296ms total)
T499C 028:746 JLINK_ReadReg(R4)  returns 0x08001510 (0000ms, 0296ms total)
T499C 028:746 JLINK_ReadReg(R5)  returns 0x08001510 (0000ms, 0296ms total)
T499C 028:746 JLINK_ReadReg(R6)  returns 0x00000000 (0000ms, 0296ms total)
T499C 028:746 JLINK_ReadReg(R7)  returns 0x00000000 (0000ms, 0296ms total)
T499C 028:746 JLINK_ReadReg(R8)  returns 0x00000000 (0000ms, 0296ms total)
T499C 028:746 JLINK_ReadReg(R9)  returns 0x20000160 (0000ms, 0296ms total)
T499C 028:746 JLINK_ReadReg(R10)  returns 0x00000000 (0000ms, 0296ms total)
T499C 028:746 JLINK_ReadReg(R11)  returns 0x00000000 (0000ms, 0296ms total)
T499C 028:746 JLINK_ReadReg(R12)  returns 0x00000003 (0000ms, 0296ms total)
T499C 028:746 JLINK_ReadReg(R13 (SP))  returns 0x20000528 (0000ms, 0296ms total)
T499C 028:746 JLINK_ReadReg(R14)  returns 0x08001429 (0000ms, 0296ms total)
T499C 028:746 JLINK_ReadReg(R15 (PC))  returns 0x080006A6 (0000ms, 0296ms total)
T499C 028:746 JLINK_ReadReg(XPSR)  returns 0x21000000 (0000ms, 0296ms total)
T499C 028:746 JLINK_ReadReg(MSP)  returns 0x20000528 (0000ms, 0296ms total)
T499C 028:746 JLINK_ReadReg(PSP)  returns 0x20001000 (0000ms, 0296ms total)
T499C 028:746 JLINK_ReadReg(CFBP)  returns 0x00000000 (0000ms, 0296ms total)
T574C 028:747 JLINK_ReadMemU32(0xE0001004, 0x0001 Items, ...) - Data: AD 21 00 00  returns 0x01 (0001ms, 0297ms total)
T574C 028:748 JLINK_ReadMem (0x40010800, 0x000C Bytes, ...) -- CPU_ReadMem(12 bytes @ 0x40010800) - Data: 44 44 44 44 44 44 84 88 00 00 00 00  returns 0x00 (0001ms, 0298ms total)
T574C 028:749 JLINK_ReadMem (0x4001080C, 0x0004 Bytes, ...) -- CPU_ReadMem(4 bytes @ 0x4001080C) - Data: 00 A0 00 00  returns 0x00 (0000ms, 0298ms total)
T574C 028:749 JLINK_ReadMem (0x40010818, 0x0004 Bytes, ...) -- CPU_ReadMem(4 bytes @ 0x40010818) - Data: 00 00 00 00  returns 0x00 (0001ms, 0299ms total)
T574C 028:750 JLINK_ReadMem (0x40010C00, 0x000C Bytes, ...) -- CPU_ReadMem(12 bytes @ 0x40010C00) - Data: 44 44 38 44 44 44 44 44 F0 FE 00 00  returns 0x00 (0000ms, 0299ms total)
T574C 028:750 JLINK_ReadMem (0x40010C0C, 0x0004 Bytes, ...) -- CPU_ReadMem(4 bytes @ 0x40010C0C) - Data: 30 00 00 00  returns 0x00 (0001ms, 0300ms total)
T574C 028:751 JLINK_ReadMem (0x40010C18, 0x0004 Bytes, ...) -- CPU_ReadMem(4 bytes @ 0x40010C18) - Data: 00 00 00 00  returns 0x00 (0000ms, 0300ms total)
T574C 028:752 JLINK_ReadMem (0x40011800, 0x000C Bytes, ...) -- CPU_ReadMem(12 bytes @ 0x40011800) - Data: 44 44 34 44 44 44 44 44 E0 FF 00 00  returns 0x00 (0000ms, 0300ms total)
T574C 028:752 JLINK_ReadMem (0x4001180C, 0x0004 Bytes, ...) -- CPU_ReadMem(4 bytes @ 0x4001180C) - Data: 20 00 00 00  returns 0x00 (0001ms, 0301ms total)
T574C 028:753 JLINK_ReadMem (0x40011818, 0x0004 Bytes, ...) -- CPU_ReadMem(4 bytes @ 0x40011818) - Data: 00 00 00 00  returns 0x00 (0000ms, 0301ms total)
T574C 028:757 JLINK_ReadMem (0x080006A2, 0x0002 Bytes, ...) -- Read from C cache (2 bytes @ 0x080006A2) - Data: 01 61  returns 0x00 (0000ms, 0301ms total)
T574C 028:757 JLINK_ReadMem (0x080006A4, 0x003C Bytes, ...) -- Read from C cache (60 bytes @ 0x080006A4) - Data: 01 E0 0B 04 03 61 70 47 01 48 00 68 70 47 00 00 ...  returns 0x00 (0000ms, 0301ms total)
T499C 029:312 JLINK_Step() -- Read from C cache (2 bytes @ 0x080006A6) -- Simulated  returns 0x00 (0001ms, 0302ms total)
T499C 029:313 JLINK_ReadReg(R15 (PC))  returns 0x080006A8 (0000ms, 0302ms total)
T499C 029:313 JLINK_ReadReg(XPSR)  returns 0x01000000 (0000ms, 0302ms total)
T499C 029:313 JLINK_Step() -- Read from C cache (2 bytes @ 0x080006A8) -- Not simulated -- CPU_WriteMem(4 bytes @ 0xE0002008) -- CPU_WriteMem(4 bytes @ 0xE0001004)  returns 0x00 (0005ms, 0307ms total)
T499C 029:318 JLINK_ReadReg(R15 (PC))  returns 0x080006AA (0000ms, 0307ms total)
T499C 029:318 JLINK_ReadReg(XPSR)  returns 0x01000000 (0000ms, 0307ms total)
T499C 029:318 JLINK_ReadReg(R0)  returns 0x40010C00 (0000ms, 0307ms total)
T499C 029:318 JLINK_ReadReg(R1)  returns 0x00000020 (0000ms, 0307ms total)
T499C 029:318 JLINK_ReadReg(R2)  returns 0x00000000 (0000ms, 0307ms total)
T499C 029:318 JLINK_ReadReg(R3)  returns 0x00200000 (0000ms, 0307ms total)
T499C 029:318 JLINK_ReadReg(R4)  returns 0x08001510 (0000ms, 0307ms total)
T499C 029:318 JLINK_ReadReg(R5)  returns 0x08001510 (0000ms, 0307ms total)
T499C 029:318 JLINK_ReadReg(R6)  returns 0x00000000 (0000ms, 0307ms total)
T499C 029:318 JLINK_ReadReg(R7)  returns 0x00000000 (0000ms, 0307ms total)
T499C 029:318 JLINK_ReadReg(R8)  returns 0x00000000 (0000ms, 0307ms total)
T499C 029:318 JLINK_ReadReg(R9)  returns 0x20000160 (0000ms, 0307ms total)
T499C 029:318 JLINK_ReadReg(R10)  returns 0x00000000 (0000ms, 0307ms total)
T499C 029:318 JLINK_ReadReg(R11)  returns 0x00000000 (0000ms, 0307ms total)
T499C 029:318 JLINK_ReadReg(R12)  returns 0x00000003 (0001ms, 0308ms total)
T499C 029:319 JLINK_ReadReg(R13 (SP))  returns 0x20000528 (0000ms, 0308ms total)
T499C 029:319 JLINK_ReadReg(R14)  returns 0x08001429 (0000ms, 0308ms total)
T499C 029:319 JLINK_ReadReg(R15 (PC))  returns 0x080006AA (0000ms, 0308ms total)
T499C 029:319 JLINK_ReadReg(XPSR)  returns 0x01000000 (0000ms, 0308ms total)
T499C 029:319 JLINK_ReadReg(MSP)  returns 0x20000528 (0001ms, 0309ms total)
T499C 029:320 JLINK_ReadReg(PSP)  returns 0x20001000 (0000ms, 0309ms total)
T499C 029:320 JLINK_ReadReg(CFBP)  returns 0x00000000 (0000ms, 0309ms total)
T574C 029:320 JLINK_ReadMemU32(0xE0001004, 0x0001 Items, ...) -- CPU_ReadMem(4 bytes @ 0xE0001004) - Data: B6 21 00 00  returns 0x01 (0000ms, 0309ms total)
T574C 029:321 JLINK_ReadMem (0x40010800, 0x000C Bytes, ...) -- CPU_ReadMem(12 bytes @ 0x40010800) - Data: 44 44 44 44 44 44 84 88 00 00 00 00  returns 0x00 (0000ms, 0309ms total)
T574C 029:321 JLINK_ReadMem (0x4001080C, 0x0004 Bytes, ...) -- CPU_ReadMem(4 bytes @ 0x4001080C) - Data: 00 A0 00 00  returns 0x00 (0001ms, 0310ms total)
T574C 029:322 JLINK_ReadMem (0x40010818, 0x0004 Bytes, ...) -- CPU_ReadMem(4 bytes @ 0x40010818) - Data: 00 00 00 00  returns 0x00 (0000ms, 0310ms total)
T574C 029:323 JLINK_ReadMem (0x40010C00, 0x000C Bytes, ...) -- CPU_ReadMem(12 bytes @ 0x40010C00) - Data: 44 44 38 44 44 44 44 44 D0 FE 00 00  returns 0x00 (0000ms, 0310ms total)
T574C 029:323 JLINK_ReadMem (0x40010C0C, 0x0004 Bytes, ...) -- CPU_ReadMem(4 bytes @ 0x40010C0C) - Data: 10 00 00 00  returns 0x00 (0001ms, 0311ms total)
T574C 029:324 JLINK_ReadMem (0x40010C18, 0x0004 Bytes, ...) -- CPU_ReadMem(4 bytes @ 0x40010C18) - Data: 00 00 00 00  returns 0x00 (0000ms, 0311ms total)
T574C 029:324 JLINK_ReadMem (0x40011800, 0x000C Bytes, ...) -- CPU_ReadMem(12 bytes @ 0x40011800) - Data: 44 44 34 44 44 44 44 44 E0 FF 00 00  returns 0x00 (0001ms, 0312ms total)
T574C 029:325 JLINK_ReadMem (0x4001180C, 0x0004 Bytes, ...) -- CPU_ReadMem(4 bytes @ 0x4001180C) - Data: 20 00 00 00  returns 0x00 (0000ms, 0312ms total)
T574C 029:325 JLINK_ReadMem (0x40011818, 0x0004 Bytes, ...) -- CPU_ReadMem(4 bytes @ 0x40011818) - Data: 00 00 00 00  returns 0x00 (0001ms, 0313ms total)
T574C 029:329 JLINK_ReadMem (0x080006A6, 0x0002 Bytes, ...) -- CPU_ReadMem(64 bytes @ 0x08000680) -- Updating C cache (64 bytes @ 0x08000680) -- Read from C cache (2 bytes @ 0x080006A6) - Data: 0B 04  returns 0x00 (0001ms, 0314ms total)
T574C 029:330 JLINK_ReadMem (0x080006A8, 0x003C Bytes, ...) -- CPU_ReadMem(64 bytes @ 0x080006C0) -- Updating C cache (64 bytes @ 0x080006C0) -- Read from C cache (60 bytes @ 0x080006A8) - Data: 03 61 70 47 01 48 00 68 70 47 00 00 10 00 00 20 ...  returns 0x00 (0001ms, 0315ms total)
T499C 029:610 JLINK_Step() -- Read from C cache (2 bytes @ 0x080006AA) -- Simulated  returns 0x00 (0000ms, 0315ms total)
T499C 029:610 JLINK_ReadReg(R15 (PC))  returns 0x08001428 (0000ms, 0315ms total)
T499C 029:610 JLINK_ReadReg(XPSR)  returns 0x01000000 (0000ms, 0315ms total)
T499C 029:610 JLINK_ReadMem (0x08001426, 0x0002 Bytes, ...) -- CPU_ReadMem(64 bytes @ 0x08001400) -- Updating C cache (64 bytes @ 0x08001400) -- Read from C cache (2 bytes @ 0x08001426) - Data: 3C F9  returns 0x00 (0001ms, 0316ms total)
T499C 029:611 JLINK_ReadMem (0x08001428, 0x003C Bytes, ...) -- CPU_ReadMem(64 bytes @ 0x08001440) -- Updating C cache (64 bytes @ 0x08001440) -- Read from C cache (60 bytes @ 0x08001428) - Data: 00 BF 00 BF 01 22 20 21 0E 48 FF F7 35 F9 00 BF ...  returns 0x00 (0001ms, 0317ms total)
T499C 029:612 JLINK_Step() -- Read from C cache (2 bytes @ 0x08001428) -- Simulated  returns 0x00 (0000ms, 0317ms total)
T499C 029:612 JLINK_ReadReg(R15 (PC))  returns 0x0800142A (0000ms, 0317ms total)
T499C 029:612 JLINK_ReadReg(XPSR)  returns 0x01000000 (0000ms, 0317ms total)
T499C 029:612 JLINK_ReadReg(R0)  returns 0x40010C00 (0000ms, 0317ms total)
T499C 029:612 JLINK_ReadReg(R1)  returns 0x00000020 (0000ms, 0317ms total)
T499C 029:613 JLINK_ReadReg(R2)  returns 0x00000000 (0000ms, 0318ms total)
T499C 029:613 JLINK_ReadReg(R3)  returns 0x00200000 (0000ms, 0318ms total)
T499C 029:613 JLINK_ReadReg(R4)  returns 0x08001510 (0000ms, 0318ms total)
T499C 029:613 JLINK_ReadReg(R5)  returns 0x08001510 (0000ms, 0318ms total)
T499C 029:613 JLINK_ReadReg(R6)  returns 0x00000000 (0000ms, 0318ms total)
T499C 029:613 JLINK_ReadReg(R7)  returns 0x00000000 (0000ms, 0318ms total)
T499C 029:613 JLINK_ReadReg(R8)  returns 0x00000000 (0000ms, 0318ms total)
T499C 029:613 JLINK_ReadReg(R9)  returns 0x20000160 (0000ms, 0318ms total)
T499C 029:613 JLINK_ReadReg(R10)  returns 0x00000000 (0000ms, 0318ms total)
T499C 029:613 JLINK_ReadReg(R11)  returns 0x00000000 (0000ms, 0318ms total)
T499C 029:613 JLINK_ReadReg(R12)  returns 0x00000003 (0000ms, 0318ms total)
T499C 029:613 JLINK_ReadReg(R13 (SP))  returns 0x20000528 (0000ms, 0318ms total)
T499C 029:613 JLINK_ReadReg(R14)  returns 0x08001429 (0000ms, 0318ms total)
T499C 029:613 JLINK_ReadReg(R15 (PC))  returns 0x0800142A (0000ms, 0318ms total)
T499C 029:613 JLINK_ReadReg(XPSR)  returns 0x01000000 (0000ms, 0318ms total)
T499C 029:613 JLINK_ReadReg(MSP)  returns 0x20000528 (0000ms, 0318ms total)
T499C 029:613 JLINK_ReadReg(PSP)  returns 0x20001000 (0000ms, 0318ms total)
T499C 029:613 JLINK_ReadReg(CFBP)  returns 0x00000000 (0000ms, 0318ms total)
T574C 029:617 JLINK_ReadMemU32(0xE0001004, 0x0001 Items, ...) - Data: B6 21 00 00  returns 0x01 (0000ms, 0318ms total)
T574C 029:618 JLINK_ReadMem (0x40010800, 0x000C Bytes, ...) -- CPU_ReadMem(12 bytes @ 0x40010800) - Data: 44 44 44 44 44 44 84 88 00 00 00 00  returns 0x00 (0000ms, 0318ms total)
T574C 029:618 JLINK_ReadMem (0x4001080C, 0x0004 Bytes, ...) -- CPU_ReadMem(4 bytes @ 0x4001080C) - Data: 00 A0 00 00  returns 0x00 (0001ms, 0319ms total)
T574C 029:619 JLINK_ReadMem (0x40010818, 0x0004 Bytes, ...) -- CPU_ReadMem(4 bytes @ 0x40010818) - Data: 00 00 00 00  returns 0x00 (0001ms, 0320ms total)
T574C 029:620 JLINK_ReadMem (0x40010C00, 0x000C Bytes, ...) -- CPU_ReadMem(12 bytes @ 0x40010C00) - Data: 44 44 38 44 44 44 44 44 D0 FE 00 00  returns 0x00 (0000ms, 0320ms total)
T574C 029:620 JLINK_ReadMem (0x40010C0C, 0x0004 Bytes, ...) -- CPU_ReadMem(4 bytes @ 0x40010C0C) - Data: 10 00 00 00  returns 0x00 (0001ms, 0321ms total)
T574C 029:621 JLINK_ReadMem (0x40010C18, 0x0004 Bytes, ...) -- CPU_ReadMem(4 bytes @ 0x40010C18) - Data: 00 00 00 00  returns 0x00 (0000ms, 0321ms total)
T574C 029:621 JLINK_ReadMem (0x40011800, 0x000C Bytes, ...) -- CPU_ReadMem(12 bytes @ 0x40011800) - Data: 44 44 34 44 44 44 44 44 E0 FF 00 00  returns 0x00 (0001ms, 0322ms total)
T574C 029:622 JLINK_ReadMem (0x4001180C, 0x0004 Bytes, ...) -- CPU_ReadMem(4 bytes @ 0x4001180C) - Data: 20 00 00 00  returns 0x00 (0000ms, 0322ms total)
T574C 029:622 JLINK_ReadMem (0x40011818, 0x0004 Bytes, ...) -- CPU_ReadMem(4 bytes @ 0x40011818) - Data: 00 00 00 00  returns 0x00 (0001ms, 0323ms total)
T574C 029:627 JLINK_ReadMem (0x0800141C, 0x003C Bytes, ...) -- Read from C cache (60 bytes @ 0x0800141C) - Data: 00 BF 00 22 20 21 11 48 FF F7 3C F9 00 BF 00 BF ...  returns 0x00 (0000ms, 0323ms total)
T499C 064:067 JLINK_Step() -- Read from C cache (2 bytes @ 0x0800142A) -- Simulated  returns 0x00 (0001ms, 0324ms total)
T499C 064:068 JLINK_ReadReg(R15 (PC))  returns 0x0800142C (0000ms, 0324ms total)
T499C 064:068 JLINK_ReadReg(XPSR)  returns 0x01000000 (0000ms, 0324ms total)
T499C 064:068 JLINK_ReadReg(R0)  returns 0x40010C00 (0000ms, 0324ms total)
T499C 064:068 JLINK_ReadReg(R1)  returns 0x00000020 (0000ms, 0324ms total)
T499C 064:068 JLINK_ReadReg(R2)  returns 0x00000000 (0000ms, 0324ms total)
T499C 064:068 JLINK_ReadReg(R3)  returns 0x00200000 (0000ms, 0324ms total)
T499C 064:068 JLINK_ReadReg(R4)  returns 0x08001510 (0000ms, 0324ms total)
T499C 064:068 JLINK_ReadReg(R5)  returns 0x08001510 (0001ms, 0325ms total)
T499C 064:069 JLINK_ReadReg(R6)  returns 0x00000000 (0000ms, 0325ms total)
T499C 064:069 JLINK_ReadReg(R7)  returns 0x00000000 (0000ms, 0325ms total)
T499C 064:069 JLINK_ReadReg(R8)  returns 0x00000000 (0000ms, 0325ms total)
T499C 064:069 JLINK_ReadReg(R9)  returns 0x20000160 (0000ms, 0325ms total)
T499C 064:069 JLINK_ReadReg(R10)  returns 0x00000000 (0000ms, 0325ms total)
T499C 064:069 JLINK_ReadReg(R11)  returns 0x00000000 (0000ms, 0325ms total)
T499C 064:069 JLINK_ReadReg(R12)  returns 0x00000003 (0000ms, 0325ms total)
T499C 064:069 JLINK_ReadReg(R13 (SP))  returns 0x20000528 (0001ms, 0326ms total)
T499C 064:070 JLINK_ReadReg(R14)  returns 0x08001429 (0000ms, 0326ms total)
T499C 064:070 JLINK_ReadReg(R15 (PC))  returns 0x0800142C (0000ms, 0326ms total)
T499C 064:070 JLINK_ReadReg(XPSR)  returns 0x01000000 (0000ms, 0326ms total)
T499C 064:070 JLINK_ReadReg(MSP)  returns 0x20000528 (0000ms, 0326ms total)
T499C 064:070 JLINK_ReadReg(PSP)  returns 0x20001000 (0000ms, 0326ms total)
T499C 064:070 JLINK_ReadReg(CFBP)  returns 0x00000000 (0000ms, 0326ms total)
T574C 064:070 JLINK_ReadMemU32(0xE0001004, 0x0001 Items, ...) - Data: B6 21 00 00  returns 0x01 (0001ms, 0327ms total)
T574C 064:071 JLINK_ReadMem (0x40010800, 0x000C Bytes, ...) -- CPU_ReadMem(12 bytes @ 0x40010800) - Data: 44 44 44 44 44 44 84 88 00 00 00 00  returns 0x00 (0001ms, 0328ms total)
T574C 064:072 JLINK_ReadMem (0x4001080C, 0x0004 Bytes, ...) -- CPU_ReadMem(4 bytes @ 0x4001080C) - Data: 00 A0 00 00  returns 0x00 (0001ms, 0329ms total)
T574C 064:073 JLINK_ReadMem (0x40010818, 0x0004 Bytes, ...) -- CPU_ReadMem(4 bytes @ 0x40010818) - Data: 00 00 00 00  returns 0x00 (0000ms, 0329ms total)
T574C 064:074 JLINK_ReadMem (0x40010C00, 0x000C Bytes, ...) -- CPU_ReadMem(12 bytes @ 0x40010C00) - Data: 44 44 38 44 44 44 44 44 D0 FE 00 00  returns 0x00 (0000ms, 0329ms total)
T574C 064:074 JLINK_ReadMem (0x40010C0C, 0x0004 Bytes, ...) -- CPU_ReadMem(4 bytes @ 0x40010C0C) - Data: 10 00 00 00  returns 0x00 (0001ms, 0330ms total)
T574C 064:075 JLINK_ReadMem (0x40010C18, 0x0004 Bytes, ...) -- CPU_ReadMem(4 bytes @ 0x40010C18) - Data: 00 00 00 00  returns 0x00 (0000ms, 0330ms total)
T574C 064:077 JLINK_ReadMem (0x40011800, 0x000C Bytes, ...) -- CPU_ReadMem(12 bytes @ 0x40011800) - Data: 44 44 34 44 44 44 44 44 E0 FF 00 00  returns 0x00 (0000ms, 0330ms total)
T574C 064:078 JLINK_ReadMem (0x4001180C, 0x0004 Bytes, ...) -- CPU_ReadMem(4 bytes @ 0x4001180C) - Data: 20 00 00 00  returns 0x00 (0000ms, 0331ms total)
T574C 064:078 JLINK_ReadMem (0x40011818, 0x0004 Bytes, ...) -- CPU_ReadMem(4 bytes @ 0x40011818) - Data: 00 00 00 00  returns 0x00 (0001ms, 0332ms total)
T574C 064:083 JLINK_ReadMem (0x08001428, 0x003C Bytes, ...) -- Read from C cache (60 bytes @ 0x08001428) - Data: 00 BF 00 BF 01 22 20 21 0E 48 FF F7 35 F9 00 BF ...  returns 0x00 (0001ms, 0333ms total)
T499C 065:334 JLINK_Step() -- Read from C cache (2 bytes @ 0x0800142C) -- Simulated  returns 0x00 (0001ms, 0334ms total)
T499C 065:335 JLINK_ReadReg(R15 (PC))  returns 0x0800142E (0000ms, 0334ms total)
T499C 065:335 JLINK_ReadReg(XPSR)  returns 0x01000000 (0000ms, 0334ms total)
T499C 065:335 JLINK_Step() -- Read from C cache (2 bytes @ 0x0800142E) -- Simulated  returns 0x00 (0000ms, 0334ms total)
T499C 065:335 JLINK_ReadReg(R15 (PC))  returns 0x08001430 (0000ms, 0334ms total)
T499C 065:335 JLINK_ReadReg(XPSR)  returns 0x01000000 (0000ms, 0334ms total)
T499C 065:335 JLINK_Step() -- Read from C cache (2 bytes @ 0x08001430) -- Read from C cache (4 bytes @ 0x0800146C) -- Simulated  returns 0x00 (0000ms, 0334ms total)
T499C 065:335 JLINK_ReadReg(R15 (PC))  returns 0x08001432 (0000ms, 0334ms total)
T499C 065:335 JLINK_ReadReg(XPSR)  returns 0x01000000 (0000ms, 0334ms total)
T499C 065:335 JLINK_Step() -- Read from C cache (2 bytes @ 0x08001432) -- Read from C cache (2 bytes @ 0x08001434) -- Simulated  returns 0x00 (0000ms, 0334ms total)
T499C 065:335 JLINK_ReadReg(R15 (PC))  returns 0x080006A0 (0000ms, 0334ms total)
T499C 065:335 JLINK_ReadReg(XPSR)  returns 0x01000000 (0000ms, 0334ms total)
T499C 065:335 JLINK_ReadReg(R0)  returns 0x40011800 (0000ms, 0334ms total)
T499C 065:335 JLINK_ReadReg(R1)  returns 0x00000020 (0001ms, 0335ms total)
T499C 065:336 JLINK_ReadReg(R2)  returns 0x00000001 (0000ms, 0335ms total)
T499C 065:336 JLINK_ReadReg(R3)  returns 0x00200000 (0000ms, 0335ms total)
T499C 065:336 JLINK_ReadReg(R4)  returns 0x08001510 (0000ms, 0335ms total)
T499C 065:336 JLINK_ReadReg(R5)  returns 0x08001510 (0000ms, 0335ms total)
